
**** 08/28/22 11:14:35 ********* PSpice 9.2 (Mar 2000) ******** ID# 0 ********

 * C:\Users\HP\Desktop\208 project\PID.sch


 ****     CIRCUIT DESCRIPTION


******************************************************************************




* Schematics Version 9.2
* Sun Aug 28 11:14:31 2022



** Analysis setup **
.tran 100u 400m 0 100u


* From [PSPICE NETLIST] section of C:\Program Files\Orcad\PSpice\PSpice.ini:
.lib "nom.lib"

.INC "PID.net"



**** INCLUDING PID.net ****
* Schematics Netlist *



V_V4         POS 0 20V
V_V5         0 NEG 20V
C_C2         $N_0001 $N_0002  1u  
X_U3         0 $N_0001 POS NEG $N_0002 uA741
X_U2         0 $N_0005 POS NEG $N_0006 uA741
R_R9         $N_0010 $N_0009  10k  
X_U4         0 $N_0010 POS NEG $N_0009 uA741
R_R10         $N_0009 $N_0013  10k  
R_R11         $N_0013 output  10k  
C_C4         output 0  1u  
C_C3         $N_0013 0  1u  
X_U1         0 $N_0014 POS NEG $N_0015 uA741
R_R2         ERROR $N_0014  1k  
R_R1         $N_0014 $N_0015  1k  
R_R6         $N_0015 $N_0010  100  
R_R5         ERROR $N_0001  100k  
R_R4         $N_0018 $N_0005  200  
C_C1         ERROR $N_0018  0.1u  
R_R3         $N_0005 $N_0006  10k  
R_R7         $N_0006 $N_0010  100  
R_R8         $N_0002 $N_0010  100  
R_R26         $N_0020 $N_0019  10k  
R_R27         output $N_0021  10k  
R_R28         $N_0019 0  10k  
X_U8         $N_0019 $N_0021 POS NEG ERROR uA741
V_Set_point         $N_0020 0  
+PULSE 0 1 10m 1n 1n 100m 200m
R_R29         $N_0021 ERROR  10k  

**** RESUMING PID.cir ****
.PROBE V(*) I(*) W(*) D(*) NOISE(*) 


.END

**** 08/28/22 11:14:35 ********* PSpice 9.2 (Mar 2000) ******** ID# 0 ********

 * C:\Users\HP\Desktop\208 project\PID.sch


 ****     Diode MODEL PARAMETERS


******************************************************************************




               X_U3.dx         X_U3.dy         X_U2.dx         X_U2.dy         
          IS  800.000000E-18  800.000000E-18  800.000000E-18  800.000000E-18 
          RS    1               1.000000E-03    1               1.000000E-03 
         CJO                   10.000000E-12                   10.000000E-12 


               X_U4.dx         X_U4.dy         X_U1.dx         X_U1.dy         
          IS  800.000000E-18  800.000000E-18  800.000000E-18  800.000000E-18 
          RS    1               1.000000E-03    1               1.000000E-03 
         CJO                   10.000000E-12                   10.000000E-12 


               X_U8.dx         X_U8.dy         
          IS  800.000000E-18  800.000000E-18 
          RS    1               1.000000E-03 
         CJO                   10.000000E-12 


**** 08/28/22 11:14:35 ********* PSpice 9.2 (Mar 2000) ******** ID# 0 ********

 * C:\Users\HP\Desktop\208 project\PID.sch


 ****     BJT MODEL PARAMETERS


******************************************************************************




               X_U3.qx         X_U2.qx         X_U4.qx         X_U1.qx         
               NPN             NPN             NPN             NPN             
          IS  800.000000E-18  800.000000E-18  800.000000E-18  800.000000E-18 
          BF   93.75           93.75           93.75           93.75         
          NF    1               1               1               1            
          BR    1               1               1               1            
          NR    1               1               1               1            
          CN    2.42            2.42            2.42            2.42         
           D     .87             .87             .87             .87         


               X_U8.qx         
               NPN             
          IS  800.000000E-18 
          BF   93.75         
          NF    1            
          BR    1            
          NR    1            
          CN    2.42         
           D     .87         


**** 08/28/22 11:14:35 ********* PSpice 9.2 (Mar 2000) ******** ID# 0 ********

 * C:\Users\HP\Desktop\208 project\PID.sch


 ****     INITIAL TRANSIENT SOLUTION       TEMPERATURE =   27.000 DEG C


******************************************************************************



 NODE   VOLTAGE     NODE   VOLTAGE     NODE   VOLTAGE     NODE   VOLTAGE


(  NEG)  -20.0000  (  POS)   20.0000  (ERROR)     .0080  (output)    -.0080     

(X_U1.6) 1.986E-06 (X_U1.7)    -.0122 (X_U1.8)    -.0122 (X_U1.9)    0.0000     

(X_U2.6)-192.6E-09 (X_U2.7)     .0012 (X_U2.8)     .0012 (X_U2.9)    0.0000     

(X_U3.6)-1.748E-06 (X_U3.7)     .0110 (X_U3.8)     .0110 (X_U3.9)    0.0000     

(X_U4.6) 2.222E-06 (X_U4.7)    -.0233 (X_U4.8)    -.0233 (X_U4.9)    0.0000     

(X_U8.6)-882.0E-09 (X_U8.7)     .0084 (X_U8.8)     .0084 (X_U8.9)    0.0000     

($N_0001) 19.16E-06                   ($N_0002)     .0074                       

($N_0005) 19.24E-06                   ($N_0006) 816.8E-06                       

($N_0009)    -.0231                   ($N_0010) 19.37E-06                       

($N_0013)    -.0155                   ($N_0014) 19.36E-06                       

($N_0015)    -.0079                   ($N_0018) 19.24E-06                       

($N_0019)-398.6E-06                   ($N_0020)    0.0000                       

($N_0021)-379.4E-06                   (X_U1.10)    -.6077                       

(X_U1.11)   19.9600                   (X_U1.12)   19.9600                       

(X_U1.13)    -.5938                   (X_U1.14)    -.5938                       

(X_U1.53)   19.0000                   (X_U1.54)  -19.0000                       

(X_U1.90)    -.0869                   (X_U1.91)   40.0000                       

(X_U1.92)  -40.0000                   (X_U1.99)    0.0000                       

(X_U2.10)    -.6077                   (X_U2.11)   19.9600                       

(X_U2.12)   19.9600                   (X_U2.13)    -.5938                       

(X_U2.14)    -.5938                   (X_U2.53)   19.0000                       

(X_U2.54)  -19.0000                   (X_U2.90)     .0081                       

(X_U2.91)   40.0000                   (X_U2.92)  -40.0000                       

(X_U2.99)    0.0000                   (X_U3.10)    -.6077                       

(X_U3.11)   19.9600                   (X_U3.12)   19.9600                       

(X_U3.13)    -.5938                   (X_U3.14)    -.5938                       

(X_U3.53)   19.0000                   (X_U3.54)  -19.0000                       

(X_U3.90)     .0735                   (X_U3.91)   40.0000                       

(X_U3.92)  -40.0000                   (X_U3.99)    0.0000                       

(X_U4.10)    -.6077                   (X_U4.11)   19.9600                       

(X_U4.12)   19.9600                   (X_U4.13)    -.5938                       

(X_U4.14)    -.5938                   (X_U4.53)   19.0000                       

(X_U4.54)  -19.0000                   (X_U4.90)    -.0031                       

(X_U4.91)   40.0000                   (X_U4.92)  -40.0000                       

(X_U4.99)    0.0000                   (X_U8.10)    -.6081                       

(X_U8.11)   19.9600                   (X_U8.12)   19.9600                       

(X_U8.13)    -.5942                   (X_U8.14)    -.5942                       

(X_U8.53)   19.0000                   (X_U8.54)  -19.0000                       

(X_U8.90)     .0090                   (X_U8.91)   40.0000                       

(X_U8.92)  -40.0000                   (X_U8.99)    0.0000                   




    VOLTAGE SOURCE CURRENTS
    NAME         CURRENT

    V_V4        -1.109E-02
    V_V5        -1.109E-02
    V_Set_point  -3.986E-08
    X_U3.vb     -1.748E-11
    X_U3.vc      1.899E-11
    X_U3.ve      1.819E-11
    X_U3.vlim    7.349E-05
    X_U3.vlp    -3.993E-11
    X_U3.vln    -4.008E-11
    X_U2.vb     -1.926E-12
    X_U2.vc      1.900E-11
    X_U2.ve      1.819E-11
    X_U2.vlim    8.054E-06
    X_U2.vlp    -3.999E-11
    X_U2.vln    -4.001E-11
    X_U4.vb      2.222E-11
    X_U4.vc      1.902E-11
    X_U4.ve      1.819E-11
    X_U4.vlim   -3.071E-06
    X_U4.vlp    -4.000E-11
    X_U4.vln    -4.000E-11
    X_U1.vb      1.986E-11
    X_U1.vc      1.901E-11
    X_U1.ve      1.819E-11
    X_U1.vlim   -8.685E-05
    X_U1.vlp    -4.009E-11
    X_U1.vln    -3.992E-11
    X_U8.vb     -8.820E-12
    X_U8.vc      1.899E-11
    X_U8.ve      1.819E-11
    X_U8.vlim    8.950E-06
    X_U8.vlp    -3.999E-11
    X_U8.vln    -4.001E-11

    TOTAL POWER DISSIPATION   4.44E-01  WATTS



          JOB CONCLUDED

          TOTAL JOB TIME             .59
