
**** 08/28/22 04:31:15 ********* PSpice 9.2 (Mar 2000) ******** ID# 0 ********

 * C:\Users\HP\Desktop\208 project\proportional.sch


 ****     CIRCUIT DESCRIPTION


******************************************************************************




* Schematics Version 9.2
* Sun Aug 28 04:31:14 2022


.PARAM         RVAR=1k 

** Analysis setup **
.tran 100u 50m 0 100u
.STEP LIN PARAM RVAR 1k 10k 2k 


* From [PSPICE NETLIST] section of C:\Program Files\Orcad\PSpice\PSpice.ini:
.lib "nom.lib"

.INC "proportional.net"



**** INCLUDING proportional.net ****
* Schematics Netlist *



C_C2         $N_0001 $N_0002  1u  
X_U3         0 $N_0001 POS NEG $N_0002 uA741
X_U2         0 $N_0005 POS NEG $N_0006 uA741
R_R9         $N_0010 $N_0009  10k  
X_U4         0 $N_0010 POS NEG $N_0009 uA741
R_R10         $N_0009 $N_0013  10k  
R_R11         $N_0013 output  10k  
C_C4         output 0  1u  
C_C3         $N_0013 0  1u  
X_U1         0 $N_0014 POS NEG $N_0015 uA741
R_R5         ERROR $N_0001  100k  
R_R4         $N_0018 $N_0005  200  
C_C1         ERROR $N_0018  0.1u  
R_R3         $N_0005 $N_0006  10k  
R_R26         $N_0020 $N_0019  10k  
R_R27         output $N_0021  10k  
R_R28         $N_0019 0  10k  
X_U8         $N_0019 $N_0021 POS NEG ERROR uA741
R_R29         $N_0021 ERROR  10k  
V_V4         POS 0 20V
V_V5         0 NEG 20V
V_Set_point         $N_0020 0  
+PULSE 0 1 0 1n 1n 500m 1000m
R_R2         ERROR $N_0014  1k  
R_R1         $N_0014 $N_0015  {RVAR}  
R_R7         $N_0006 $N_0010  100T  
R_R8         $N_0002 $N_0010  100T  
R_R6         $N_0015 $N_0010  500  

**** RESUMING proportional.cir ****
.PROBE V(*) I(*) W(*) D(*) NOISE(*) 


.END

**** 08/28/22 04:31:15 ********* PSpice 9.2 (Mar 2000) ******** ID# 0 ********

 * C:\Users\HP\Desktop\208 project\proportional.sch


 ****     Diode MODEL PARAMETERS


******************************************************************************




               X_U3.dx         X_U3.dy         X_U2.dx         X_U2.dy         
          IS  800.000000E-18  800.000000E-18  800.000000E-18  800.000000E-18 
          RS    1               1.000000E-03    1               1.000000E-03 
         CJO                   10.000000E-12                   10.000000E-12 


               X_U4.dx         X_U4.dy         X_U1.dx         X_U1.dy         
          IS  800.000000E-18  800.000000E-18  800.000000E-18  800.000000E-18 
          RS    1               1.000000E-03    1               1.000000E-03 
         CJO                   10.000000E-12                   10.000000E-12 


               X_U8.dx         X_U8.dy         
          IS  800.000000E-18  800.000000E-18 
          RS    1               1.000000E-03 
         CJO                   10.000000E-12 


**** 08/28/22 04:31:15 ********* PSpice 9.2 (Mar 2000) ******** ID# 0 ********

 * C:\Users\HP\Desktop\208 project\proportional.sch


 ****     BJT MODEL PARAMETERS


******************************************************************************




               X_U3.qx         X_U2.qx         X_U4.qx         X_U1.qx         
               NPN             NPN             NPN             NPN             
          IS  800.000000E-18  800.000000E-18  800.000000E-18  800.000000E-18 
          BF   93.75           93.75           93.75           93.75         
          NF    1               1               1               1            
          BR    1               1               1               1            
          NR    1               1               1               1            
          CN    2.42            2.42            2.42            2.42         
           D     .87             .87             .87             .87         


               X_U8.qx         
               NPN             
          IS  800.000000E-18 
          BF   93.75         
          NF    1            
          BR    1            
          NR    1            
          CN    2.42         
           D     .87         


**** 08/28/22 04:31:15 ********* PSpice 9.2 (Mar 2000) ******** ID# 0 ********

 * C:\Users\HP\Desktop\208 project\proportional.sch


 ****     INITIAL TRANSIENT SOLUTION       TEMPERATURE =   27.000 DEG C

 ****     CURRENT STEP                     PARAM RVAR =    1.0000E+03


******************************************************************************



 NODE   VOLTAGE     NODE   VOLTAGE     NODE   VOLTAGE     NODE   VOLTAGE


(  NEG)  -20.0000  (  POS)   20.0000  (ERROR) 88.65E-06  (output)-49.73E-06     

(X_U1.6)-3.518E-09 (X_U1.7) 31.17E-06 (X_U1.8) 31.17E-06 (X_U1.9)    0.0000     

(X_U2.6)-78.41E-09 (X_U2.7) 820.8E-06 (X_U2.8) 820.8E-06 (X_U2.9)    0.0000     

(X_U3.6)    -.1350 (X_U3.7)   20.4940 (X_U3.8)   20.4940 (X_U3.9)    0.0000     

(X_U4.6)-59.04E-09 (X_U4.7) 614.0E-06 (X_U4.8) 614.0E-06 (X_U4.9)    0.0000     

(X_U8.6)-11.34E-09 (X_U8.7) 98.08E-06 (X_U8.8) 98.08E-06 (X_U8.9)    0.0000     

($N_0001)    -.0072                   ($N_0002)   19.7890                       

($N_0005) 19.25E-06                   ($N_0006) 816.8E-06                       

($N_0009) 609.4E-06                   ($N_0010) 19.25E-06                       

($N_0013) 279.9E-06                   ($N_0014) 19.25E-06                       

($N_0015) 29.62E-06                   ($N_0018) 19.25E-06                       

($N_0019)-398.6E-06                   ($N_0020)    0.0000                       

($N_0021)-379.3E-06                   (X_U1.10)    -.6077                       

(X_U1.11)   19.9600                   (X_U1.12)   19.9600                       

(X_U1.13)    -.5938                   (X_U1.14)    -.5938                       

(X_U1.53)   19.0000                   (X_U1.54)  -19.0000                       

(X_U1.90) 31.10E-06                   (X_U1.91)   40.0000                       

(X_U1.92)  -40.0000                   (X_U1.99)    0.0000                       

(X_U2.10)    -.6077                   (X_U2.11)   19.9600                       

(X_U2.12)   19.9600                   (X_U2.13)    -.5938                       

(X_U2.14)    -.5938                   (X_U2.53)   19.0000                       

(X_U2.54)  -19.0000                   (X_U2.90) 79.75E-06                       

(X_U2.91)   40.0000                   (X_U2.92)  -40.0000                       

(X_U2.99)    0.0000                   (X_U3.10)    -.6111                       

(X_U3.11)   19.9640                   (X_U3.12)   19.9570                       

(X_U3.13)    -.5985                   (X_U3.14)    -.5960                       

(X_U3.53)   19.0000                   (X_U3.54)  -19.0000                       

(X_U3.90)   14.1020                   (X_U3.91)   40.0000                       

(X_U3.92)  -40.0000                   (X_U3.99)    0.0000                       

(X_U4.10)    -.6077                   (X_U4.11)   19.9600                       

(X_U4.12)   19.9600                   (X_U4.13)    -.5938                       

(X_U4.14)    -.5938                   (X_U4.53)   19.0000                       

(X_U4.54)  -19.0000                   (X_U4.90) 91.98E-06                       

(X_U4.91)   40.0000                   (X_U4.92)  -40.0000                       

(X_U4.99)    0.0000                   (X_U8.10)    -.6081                       

(X_U8.11)   19.9600                   (X_U8.12)   19.9600                       

(X_U8.13)    -.5942                   (X_U8.14)    -.5942                       

(X_U8.53)   19.0000                   (X_U8.54)  -19.0000                       

(X_U8.90) 188.7E-06                   (X_U8.91)   40.0000                       

(X_U8.92)  -40.0000                   (X_U8.99)    0.0000                   




    VOLTAGE SOURCE CURRENTS
    NAME         CURRENT

    V_V4         3.014E-03
    V_V5        -1.109E-02
    V_Set_point  -3.986E-08
    X_U3.vb     -1.350E-06
    X_U3.vc     -1.410E-02
    X_U3.ve      4.002E-11
    X_U3.vlim    1.410E-02
    X_U3.vlp    -2.590E-11
    X_U3.vln    -5.411E-11
    X_U2.vb     -7.841E-13
    X_U2.vc      1.900E-11
    X_U2.ve      1.819E-11
    X_U2.vlim    7.975E-08
    X_U2.vlp    -4.000E-11
    X_U2.vln    -4.000E-11
    X_U4.vb     -5.904E-13
    X_U4.vc      1.900E-11
    X_U4.ve      1.819E-11
    X_U4.vlim    9.198E-08
    X_U4.vlp    -4.000E-11
    X_U4.vln    -4.000E-11
    X_U1.vb     -3.518E-14
    X_U1.vc      1.900E-11
    X_U1.ve      1.819E-11
    X_U1.vlim    3.110E-08
    X_U1.vlp    -4.000E-11
    X_U1.vln    -4.000E-11
    X_U8.vb     -1.134E-13
    X_U8.vc      1.900E-11
    X_U8.ve      1.819E-11
    X_U8.vlim    1.887E-07
    X_U8.vlp    -4.000E-11
    X_U8.vln    -4.000E-11

    TOTAL POWER DISSIPATION   1.76E-01  WATTS


**** 08/28/22 04:31:15 ********* PSpice 9.2 (Mar 2000) ******** ID# 0 ********

 * C:\Users\HP\Desktop\208 project\proportional.sch


 ****     INITIAL TRANSIENT SOLUTION       TEMPERATURE =   27.000 DEG C

 ****     CURRENT STEP                     PARAM RVAR =    3.0000E+03


******************************************************************************



 NODE   VOLTAGE     NODE   VOLTAGE     NODE   VOLTAGE     NODE   VOLTAGE


(  NEG)  -20.0000  (  POS)   20.0000  (ERROR) 95.22E-06  (output)-56.31E-06     

(X_U1.6)-3.530E-09 (X_U1.7) 31.93E-06 (X_U1.8) 31.93E-06 (X_U1.9)    0.0000     

(X_U2.6)-78.39E-09 (X_U2.7) 820.8E-06 (X_U2.8) 820.8E-06 (X_U2.9)    0.0000     

(X_U3.6)    -.1349 (X_U3.7)   20.4930 (X_U3.8)   20.4930 (X_U3.9)    0.0000     

(X_U4.6)-57.13E-09 (X_U4.7) 594.2E-06 (X_U4.8) 594.2E-06 (X_U4.9)    0.0000     

(X_U8.6)-12.05E-09 (X_U8.7) 105.0E-06 (X_U8.8) 105.0E-06 (X_U8.9)    0.0000     

($N_0001)    -.0072                   ($N_0002)   19.7890                       

($N_0005) 19.25E-06                   ($N_0006) 816.8E-06                       

($N_0009) 589.7E-06                   ($N_0010) 19.25E-06                       

($N_0013) 266.7E-06                   ($N_0014) 19.25E-06                       

($N_0015) 30.60E-06                   ($N_0018) 19.25E-06                       

($N_0019)-398.6E-06                   ($N_0020)    0.0000                       

($N_0021)-379.3E-06                   (X_U1.10)    -.6077                       

(X_U1.11)   19.9600                   (X_U1.12)   19.9600                       

(X_U1.13)    -.5938                   (X_U1.14)    -.5938                       

(X_U1.53)   19.0000                   (X_U1.54)  -19.0000                       

(X_U1.90) 26.49E-06                   (X_U1.91)   40.0000                       

(X_U1.92)  -40.0000                   (X_U1.99)    0.0000                       

(X_U2.10)    -.6077                   (X_U2.11)   19.9600                       

(X_U2.12)   19.9600                   (X_U2.13)    -.5938                       

(X_U2.14)    -.5938                   (X_U2.53)   19.0000                       

(X_U2.54)  -19.0000                   (X_U2.90) 79.76E-06                       

(X_U2.91)   40.0000                   (X_U2.92)  -40.0000                       

(X_U2.99)    0.0000                   (X_U3.10)    -.6111                       

(X_U3.11)   19.9640                   (X_U3.12)   19.9570                       

(X_U3.13)    -.5985                   (X_U3.14)    -.5960                       

(X_U3.53)   19.0000                   (X_U3.54)  -19.0000                       

(X_U3.90)   14.0900                   (X_U3.91)   40.0000                       

(X_U3.92)  -40.0000                   (X_U3.99)    0.0000                       

(X_U4.10)    -.6077                   (X_U4.11)   19.9600                       

(X_U4.12)   19.9600                   (X_U4.13)    -.5938                       

(X_U4.14)    -.5938                   (X_U4.53)   19.0000                       

(X_U4.54)  -19.0000                   (X_U4.90) 89.35E-06                       

(X_U4.91)   40.0000                   (X_U4.92)  -40.0000                       

(X_U4.99)    0.0000                   (X_U8.10)    -.6081                       

(X_U8.11)   19.9600                   (X_U8.12)   19.9600                       

(X_U8.13)    -.5942                   (X_U8.14)    -.5942                       

(X_U8.53)   19.0000                   (X_U8.54)  -19.0000                       

(X_U8.90) 196.0E-06                   (X_U8.91)   40.0000                       

(X_U8.92)  -40.0000                   (X_U8.99)    0.0000                   




    VOLTAGE SOURCE CURRENTS
    NAME         CURRENT

    V_V4         3.002E-03
    V_V5        -1.109E-02
    V_Set_point  -3.986E-08
    X_U3.vb     -1.349E-06
    X_U3.vc     -1.409E-02
    X_U3.ve      4.002E-11
    X_U3.vlim    1.409E-02
    X_U3.vlp    -2.591E-11
    X_U3.vln    -5.409E-11
    X_U2.vb     -7.838E-13
    X_U2.vc      1.900E-11
    X_U2.ve      1.819E-11
    X_U2.vlim    7.976E-08
    X_U2.vlp    -4.000E-11
    X_U2.vln    -4.000E-11
    X_U4.vb     -5.711E-13
    X_U4.vc      1.900E-11
    X_U4.ve      1.819E-11
    X_U4.vlim    8.935E-08
    X_U4.vlp    -4.000E-11
    X_U4.vln    -4.000E-11
    X_U1.vb     -3.516E-14
    X_U1.vc      1.900E-11
    X_U1.ve      1.819E-11
    X_U1.vlim    2.649E-08
    X_U1.vlp    -4.000E-11
    X_U1.vln    -4.000E-11
    X_U8.vb     -1.203E-13
    X_U8.vc      1.900E-11
    X_U8.ve      1.819E-11
    X_U8.vlim    1.960E-07
    X_U8.vlp    -4.000E-11
    X_U8.vln    -4.000E-11

    TOTAL POWER DISSIPATION   1.76E-01  WATTS


**** 08/28/22 04:31:15 ********* PSpice 9.2 (Mar 2000) ******** ID# 0 ********

 * C:\Users\HP\Desktop\208 project\proportional.sch


 ****     INITIAL TRANSIENT SOLUTION       TEMPERATURE =   27.000 DEG C

 ****     CURRENT STEP                     PARAM RVAR =    5.0000E+03


******************************************************************************



 NODE   VOLTAGE     NODE   VOLTAGE     NODE   VOLTAGE     NODE   VOLTAGE


(  NEG)  -20.0000  (  POS)   20.0000  (ERROR) 96.69E-06  (output)-57.78E-06     

(X_U1.6)-3.536E-09 (X_U1.7) 32.10E-06 (X_U1.8) 32.10E-06 (X_U1.9)    0.0000     

(X_U2.6)-78.42E-09 (X_U2.7) 820.8E-06 (X_U2.8) 820.8E-06 (X_U2.9)    0.0000     

(X_U3.6)    -.1348 (X_U3.7)   20.4930 (X_U3.8)   20.4930 (X_U3.9)    0.0000     

(X_U4.6)-56.70E-09 (X_U4.7) 589.7E-06 (X_U4.8) 589.7E-06 (X_U4.9)    0.0000     

(X_U8.6)-12.21E-09 (X_U8.7) 106.6E-06 (X_U8.8) 106.6E-06 (X_U8.9)    0.0000     

($N_0001)    -.0072                   ($N_0002)   19.7890                       

($N_0005) 19.25E-06                   ($N_0006) 816.8E-06                       

($N_0009) 585.3E-06                   ($N_0010) 19.25E-06                       

($N_0013) 263.8E-06                   ($N_0014) 19.25E-06                       

($N_0015) 30.82E-06                   ($N_0018) 19.25E-06                       

($N_0019)-398.6E-06                   ($N_0020)    0.0000                       

($N_0021)-379.3E-06                   (X_U1.10)    -.6077                       

(X_U1.11)   19.9600                   (X_U1.12)   19.9600                       

(X_U1.13)    -.5938                   (X_U1.14)    -.5938                       

(X_U1.53)   19.0000                   (X_U1.54)  -19.0000                       

(X_U1.90) 25.46E-06                   (X_U1.91)   40.0000                       

(X_U1.92)  -40.0000                   (X_U1.99)    0.0000                       

(X_U2.10)    -.6077                   (X_U2.11)   19.9600                       

(X_U2.12)   19.9600                   (X_U2.13)    -.5938                       

(X_U2.14)    -.5938                   (X_U2.53)   19.0000                       

(X_U2.54)  -19.0000                   (X_U2.90) 79.76E-06                       

(X_U2.91)   40.0000                   (X_U2.92)  -40.0000                       

(X_U2.99)    0.0000                   (X_U3.10)    -.6111                       

(X_U3.11)   19.9640                   (X_U3.12)   19.9570                       

(X_U3.13)    -.5985                   (X_U3.14)    -.5960                       

(X_U3.53)   19.0000                   (X_U3.54)  -19.0000                       

(X_U3.90)   14.0870                   (X_U3.91)   40.0000                       

(X_U3.92)  -40.0000                   (X_U3.99)    0.0000                       

(X_U4.10)    -.6077                   (X_U4.11)   19.9600                       

(X_U4.12)   19.9600                   (X_U4.13)    -.5938                       

(X_U4.14)    -.5938                   (X_U4.53)   19.0000                       

(X_U4.54)  -19.0000                   (X_U4.90) 88.76E-06                       

(X_U4.91)   40.0000                   (X_U4.92)  -40.0000                       

(X_U4.99)    0.0000                   (X_U8.10)    -.6081                       

(X_U8.11)   19.9600                   (X_U8.12)   19.9600                       

(X_U8.13)    -.5942                   (X_U8.14)    -.5942                       

(X_U8.53)   19.0000                   (X_U8.54)  -19.0000                       

(X_U8.90) 197.6E-06                   (X_U8.91)   40.0000                       

(X_U8.92)  -40.0000                   (X_U8.99)    0.0000                   




    VOLTAGE SOURCE CURRENTS
    NAME         CURRENT

    V_V4         2.999E-03
    V_V5        -1.109E-02
    V_Set_point  -3.986E-08
    X_U3.vb     -1.348E-06
    X_U3.vc     -1.409E-02
    X_U3.ve      4.002E-11
    X_U3.vlim    1.409E-02
    X_U3.vlp    -2.591E-11
    X_U3.vln    -5.409E-11
    X_U2.vb     -7.839E-13
    X_U2.vc      1.900E-11
    X_U2.ve      1.819E-11
    X_U2.vlim    7.976E-08
    X_U2.vlp    -4.000E-11
    X_U2.vln    -4.000E-11
    X_U4.vb     -5.669E-13
    X_U4.vc      1.900E-11
    X_U4.ve      1.819E-11
    X_U4.vlim    8.876E-08
    X_U4.vlp    -4.000E-11
    X_U4.vln    -4.000E-11
    X_U1.vb     -3.522E-14
    X_U1.vc      1.900E-11
    X_U1.ve      1.819E-11
    X_U1.vlim    2.546E-08
    X_U1.vlp    -4.000E-11
    X_U1.vln    -4.000E-11
    X_U8.vb     -1.220E-13
    X_U8.vc      1.900E-11
    X_U8.ve      1.819E-11
    X_U8.vlim    1.976E-07
    X_U8.vlp    -4.000E-11
    X_U8.vln    -4.000E-11

    TOTAL POWER DISSIPATION   1.76E-01  WATTS


**** 08/28/22 04:31:15 ********* PSpice 9.2 (Mar 2000) ******** ID# 0 ********

 * C:\Users\HP\Desktop\208 project\proportional.sch


 ****     INITIAL TRANSIENT SOLUTION       TEMPERATURE =   27.000 DEG C

 ****     CURRENT STEP                     PARAM RVAR =    7.0000E+03


******************************************************************************



 NODE   VOLTAGE     NODE   VOLTAGE     NODE   VOLTAGE     NODE   VOLTAGE


(  NEG)  -20.0000  (  POS)   20.0000  (ERROR) 97.34E-06  (output)-58.43E-06     

(X_U1.6)-3.539E-09 (X_U1.7) 32.17E-06 (X_U1.8) 32.17E-06 (X_U1.9)    0.0000     

(X_U2.6)-78.38E-09 (X_U2.7) 820.8E-06 (X_U2.8) 820.8E-06 (X_U2.9)    0.0000     

(X_U3.6)    -.1348 (X_U3.7)   20.4930 (X_U3.8)   20.4930 (X_U3.9)    0.0000     

(X_U4.6)-56.51E-09 (X_U4.7) 587.8E-06 (X_U4.8) 587.8E-06 (X_U4.9)    0.0000     

(X_U8.6)-12.28E-09 (X_U8.7) 107.3E-06 (X_U8.8) 107.3E-06 (X_U8.9)    0.0000     

($N_0001)    -.0072                   ($N_0002)   19.7890                       

($N_0005) 19.25E-06                   ($N_0006) 816.8E-06                       

($N_0009) 583.4E-06                   ($N_0010) 19.25E-06                       

($N_0013) 262.5E-06                   ($N_0014) 19.25E-06                       

($N_0015) 30.92E-06                   ($N_0018) 19.25E-06                       

($N_0019)-398.6E-06                   ($N_0020)    0.0000                       

($N_0021)-379.3E-06                   (X_U1.10)    -.6077                       

(X_U1.11)   19.9600                   (X_U1.12)   19.9600                       

(X_U1.13)    -.5938                   (X_U1.14)    -.5938                       

(X_U1.53)   19.0000                   (X_U1.54)  -19.0000                       

(X_U1.90) 25.01E-06                   (X_U1.91)   40.0000                       

